!Nueva Lista de parametros corregidos 
# Hz S RI R 50 
400000000 	-0.013587788497411102 	0.011413921727184069 		0.8544238474303381 	0.5325257292347084 		0.992268814966875 	0.15269356778329082 		-0.011647671672004435 	0.00911545992812521 	
409500000 	-0.010695054564235727 	0.01413642276224616 		0.8469724564698705 	0.543635087896676 		0.9922594714245767 	0.1562171374715292 		-0.012896631319105808 	0.008027432641194286 	
419000000 	-0.009837848973754374 	0.013633946675025483 		0.8406455528003143 	0.5548663309186468 		0.9919613825000634 	0.15977316691079324 		-0.011998697358665123 	0.0077074543532983895 	
428500000 	-0.012725399266486156 	0.011782470320011142 		0.8325810951326857 	0.5655764103423024 		0.9916311552363838 	0.1633347957341323 		-0.011404045825958777 	0.008341388209454344 	
438000000 	-0.014617245808568062 	0.011876176979917387 		0.8269363014790013 	0.5770537929251952 		0.9907461922327803 	0.16688311549150567 		-0.011545077899674659 	0.008843569524098377 	
447500000 	-0.01508267612355657 	0.012085731528667964 		0.8184124867303533 	0.5884281755469555 		0.9901326135920496 	0.17012051248056115 		-0.011882869684713235 	0.008016444153725977 	
457000000 	-0.011345606420946109 	0.0128366107989845 		0.8110003271211736 	0.599040723426905 		0.9898433975620341 	0.17387337577965817 		-0.012168200320628963 	0.009266354052397828 	
466500000 	-0.011462117060640513 	0.013857814607822847 		0.8032410438826662 	0.6096102159238568 		0.989298869007525 	0.17730302152966976 		-0.013765940917025005 	0.010205132203497018 	
476000000 	-0.013061716809850032 	0.01089408772898084 		0.7949038565617015 	0.6201115406982164 		0.9885112243700412 	0.18083033917355446 		-0.01227540349383338 	0.010263280381375969 	
485500000 	-0.012724144426185255 	0.01048833532068731 		0.7873071466746947 	0.6308675001885792 		0.9879505717657425 	0.18468471265715253 		-0.012635880491275538 	0.00979562424960945 	
495000000 	-0.013047131688710833 	0.010599700045508904 		0.779236993691142 	0.641369984087956 		0.987428028575013 	0.18829705417001993 		-0.01284282041537002 	0.010111446950296862 	
504500000 	-0.013816663164589805 	0.009785851713203654 		0.7714072364245783 	0.6515848162248701 		0.987202927844993 	0.19164755075171883 		-0.012270474601947903 	0.009701954888565553 	
514000000 	-0.014549797523886495 	0.008661057805194517 		0.7621973739978293 	0.6616543371304008 		0.9864547117666462 	0.19505328904514058 		-0.012598406670444443 	0.008742602620271739 	
523500000 	-0.011977293286622349 	0.010377301995285948 		0.7536307460538236 	0.6716916162608885 		0.9862553056681878 	0.19842984876004033 		-0.013507352376906749 	0.009188701532558873 	
533000000 	-0.015675052262107365 	0.011065082815127452 		0.7455793990400558 	0.6813668232624305 		0.9855737183634291 	0.20185468017605848 		-0.012217903780502177 	0.009220708723442874 	
542500000 	-0.014331109421056719 	0.012254310918282581 		0.7362450768315113 	0.6917693261324905 		0.9846655697998011 	0.2058553754387636 		-0.014204561999936137 	0.00953290015868124 	
552000000 	-0.01628129044206102 	0.01014655682211835 		0.7273274942161707 	0.7024149294666173 		0.9842750123840774 	0.20854607307401712 		-0.014521917266356899 	0.009627411670976601 	
561500000 	-0.0174675711491574 	0.010315262066532993 		0.719292982582394 	0.7107775968677823 		0.9837939930128213 	0.2130301596701649 		-0.01328635055264603 	0.009197013037028213 	
571000000 	-0.01724636362323429 	0.008789975380759573 		0.7098974783614698 	0.7216840072043188 		0.9829665440641556 	0.21613055846245896 		-0.012485400144546044 	0.008647866317909777 	
580500000 	-0.017885522384798857 	0.011354034541119442 		0.7008002335675906 	0.7299681264868687 		0.9818207453400832 	0.21993200509406485 		-0.01433594210959802 	0.008726799840790923 	
590000000 	-0.018174567483339777 	0.008545697674899974 		0.6910724134060865 	0.7395531781346099 		0.9815395613523435 	0.2233840944772807 		-0.01299231027192966 	0.008868157252282058 	
599500000 	-0.019170552797791014 	0.005114555157894163 		0.6809754981794047 	0.7478345751349111 		0.9815103073025682 	0.22679709362121733 		-0.012228785982344082 	0.009199647213565528 	
609000000 	-0.016442939067757695 	0.005903790681112323 		0.6714266346980347 	0.7570475985508933 		0.9804056618650772 	0.23107740415755573 		-0.012844079735318214 	0.009866705098694493 	
618500000 	-0.01972123926826093 	0.007862806745052752 		0.6616856006482421 	0.765774815654927 		0.9791600822484305 	0.23384310787084062 		-0.01450285585469264 	0.008820369377427821 	
628000000 	-0.018016425339727964 	0.007021218323096077 		0.6521301857738846 	0.7746213912801271 		0.9784171369427948 	0.2366533646371893 		-0.013750014925019618 	0.00884683599864165 	
637500000 	-0.01809196044910398 	0.009529891358980502 		0.6418572922058255 	0.7841683496223174 		0.977378342626805 	0.2407763864831673 		-0.014693899568238017 	0.009644377924873217 	
647000000 	-0.01615727035956252 	0.007037462389904923 		0.6327603213617214 	0.7925889036467878 		0.9771022558740227 	0.24446966718259613 		-0.014114774195843732 	0.009428139398516014 	
656500000 	-0.015469135750724452 	0.0069061412951870816 		0.6215784396313007 	0.8008212875998963 		0.9762630129328387 	0.24771641922510723 		-0.012582684697590642 	0.009206028257071985 	
666000000 	-0.018494599237243683 	0.005449284523888155 		0.6116736013760856 	0.8086391371409737 		0.9760596974729772 	0.2512472943034179 		-0.013958286319496057 	0.008948471910445063 	
675500000 	-0.017083806562009377 	0.006445345008282637 		0.601105655857468 	0.8176377378075451 		0.9754596935099785 	0.2544008536036845 		-0.013128689202643375 	0.008520049912069198 	
685000000 	-0.018752001064480436 	0.00612623196552871 		0.5905059349808224 	0.8252027688114136 		0.9741703876313534 	0.25801113420090377 		-0.01358278544876316 	0.00873616067290804 	
694500000 	-0.01641763772009119 	0.0046115879829877835 		0.5797218517815 	0.8327542375436637 		0.9737725783359918 	0.2618896494821489 		-0.013515494205683553 	0.009940737465982704 	
704000000 	-0.01784673078750379 	0.003521458550241792 		0.5689696273991945 	0.8405917679380905 		0.9729555077283165 	0.2653030828770266 		-0.01374484534157124 	0.009431179561594541 	
713500000 	-0.01632229067237029 	0.0019501379480273465 		0.558488516029368 	0.8474416250066135 		0.9720314749214934 	0.26864394021107796 		-0.01261841247994342 	0.009676058916230785 	
723000000 	-0.019327104584667864 	0.003092888506610424 		0.5475702508943162 	0.8553309638034841 		0.9704495085658232 	0.27182027804967046 		-0.013658932771198526 	0.008668544446756776 	
732500000 	-0.021297029685630162 	0.003110297073854384 		0.5364699891696214 	0.8628221297616784 		0.9696956045456896 	0.2752069210390909 		-0.013621415614704964 	0.007677262581902224 	
742000000 	-0.019429586298104873 	0.004098548055878588 		0.5249702074339084 	0.86988490030781 		0.9690081263434438 	0.27917081390351406 		-0.012397573445826815 	0.009207886527905997 	
751500000 	-0.01947416238418719 	0.003517115471106385 		0.5143971419864369 	0.8770375728860507 		0.9685693179536602 	0.282300440295275 		-0.013647489054397345 	0.008551820966301686 	
761000000 	-0.016481617748126023 	0.0016192096620017283 		0.5020858642011746 	0.8845228055081448 		0.9674664862542993 	0.2857942611319513 		-0.01320033723064665 	0.009061126503880655 	
770500000 	-0.024476234663584572 	0.0031662944812717283 		0.4910576578530315 	0.8894374228920635 		0.9671008145372394 	0.289780285294079 		-0.014377497096167518 	0.006934962643949521 	
780000000 	-0.02131625742024062 	0.003922846336389028 		0.4798710130579011 	0.896369588236798 		0.9662094309263054 	0.29277364573685416 		-0.014241945333233984 	0.007681278688987721 	
789500000 	-0.02307673009806114 	0.0017155766894432663 		0.46872575317814724 	0.9033648619863406 		0.9644283402666758 	0.29608809590062496 		-0.013531179821868664 	0.007738196940404264 	
799000000 	-0.01938855932799329 	0.002175616308245929 		0.45712141145904217 	0.9093427027334992 		0.964517954429524 	0.29965093647592617 		-0.013182972848153104 	0.009088741929794577 	
808500000 	-0.02009707476957318 	-0.0009291014597103821 		0.44461386360835037 	0.9161169039231287 		0.9629806695762211 	0.3026597242455478 		-0.012686374108249064 	0.008521986565816847 	
818000000 	-0.02104469116523833 	-0.001633885105857609 		0.4337218579259878 	0.9216158601517823 		0.9624426777614999 	0.3064916179046485 		-0.013326297178712978 	0.00788035793584808 	
827500000 	-0.02126401787577275 	-0.00025377817115793735 		0.4215704179590277 	0.9276099906006342 		0.9614935717673636 	0.3097586044944403 		-0.012427102462516227 	0.008790714004338366 	
837000000 	-0.022385846150214085 	-0.0013127000137897662 		0.4097076172811059 	0.933077904486631 		0.9605577634647507 	0.3134702832810268 		-0.012369902642243217 	0.008904688836914774 	
846500000 	-0.018504002739546725 	-0.0034044447257643036 		0.3977619108585776 	0.9378291958601476 		0.9598117670646638 	0.31740251438676736 		-0.010979074084031797 	0.009218202040557887 	
856000000 	-0.0197640452815357 	-0.0031714892904050997 		0.385174872025198 	0.943898087416006 		0.9589826526215137 	0.3200456014123346 		-0.01229452974898331 	0.009060068510873726 	
865500000 	-0.018288228272816003 	-0.004788869056373288 		0.37331431991309727 	0.9499498843117008 		0.9569909042321577 	0.32357183343263474 		-0.010622051331245545 	0.00909522016835977 	
875000000 	-0.01987621810420795 	-0.006426208011031187 		0.36053879377526016 	0.9543503423771755 		0.9564796543080013 	0.3271519473027107 		-0.011074970171809325 	0.008040028845155847 	
884500000 	-0.020013236823019767 	-0.006340883162414639 		0.3484081972648086 	0.9589912532631641 		0.9557395077402675 	0.33016571827885255 		-0.011249083943198622 	0.007886266140206809 	
894000000 	-0.02071204794089664 	-0.003297138951074363 		0.3367195323001744 	0.9631105930679057 		0.9547604808905079 	0.33366183870897737 		-0.01229033196431362 	0.009369894638613959 	
903500000 	-0.02060844888115971 	-0.003058885967424205 		0.3237873045722965 	0.9684220692916313 		0.9536242002129348 	0.3368970664816459 		-0.012029687978833994 	0.008737391586377935 	
913000000 	-0.019348030082764374 	-0.004275742386559252 		0.31149612932399073 	0.972463072936478 		0.952281636750172 	0.3403102107326169 		-0.012012220677763636 	0.0081421216054765 	
922500000 	-0.019947635353791092 	-0.005189901866593027 		0.298787284243191 	0.9772576708815465 		0.9513860875001162 	0.3437284909523075 		-0.011517493626829033 	0.007770662665477771 	
932000000 	-0.01961333038867659 	-0.005424809519918922 		0.2864540085457286 	0.9815702597289185 		0.9499602179881631 	0.3472068517787955 		-0.010890885681753225 	0.008383974202455477 	
941500000 	-0.020993764686291168 	-0.005164260063514572 		0.2737080191252447 	0.9843091742473896 		0.9490711304694188 	0.35105278316967364 		-0.011863062718249547 	0.007180763540680344 	
951000000 	-0.018633675763952674 	-0.007568755247172154 		0.2610023972367319 	0.9889355127487803 		0.9482267272220972 	0.35345223213458343 		-0.01017337371376925 	0.007968619304296643 	
960500000 	-0.020232879073122958 	-0.005840248147276946 		0.24878088925998393 	0.9922451666396467 		0.9465204380809706 	0.35732942633870685 		-0.011033991155454139 	0.00815966768852713 	
970000000 	-0.016937313114824635 	-0.008105165969736068 		0.23554921073770987 	0.9956902057522031 		0.9462185111670227 	0.36063750994547483 		-0.00945631565241577 	0.007847433549838601 	
979500000 	-0.018332306473711407 	-0.009788674539566205 		0.22257676905355409 	0.9987339839937833 		0.9450838637892917 	0.36428037759376564 		-0.009752696039016205 	0.007787450578492463 	
989000000 	-0.01792825899232927 	-0.010441543986472387 		0.2099712052198598 	1.0020377599504466 		0.9434849369666061 	0.3670206658230759 		-0.009054139055368353 	0.007718400203358527 	
998500000 	-0.017125632645760648 	-0.009901581950655393 		0.19761501358779804 	1.0046882525475123 		0.9423856219417148 	0.37065768567919016 		-0.008967933392996362 	0.007948559565721826 	
1008000000 	-0.017961394378866676 	-0.009779343203566196 		0.18448659127475708 	1.0076007495755115 		0.9410812456933219 	0.3740691249556266 		-0.010054983788980362 	0.007687772218743727 	
1017500000 	-0.016068519761000963 	-0.008798445388369087 		0.17129152861623964 	1.0103351564670304 		0.9406219863005286 	0.3774950141524864 		-0.008470822583672955 	0.00819120849172281 	
1027000000 	-0.01587764346369222 	-0.008718202975716946 		0.15844974428311523 	1.0125841597192853 		0.93914555926009 	0.3801641336713992 		-0.00911308848419351 	0.008527372026875151 	
1036500000 	-0.017130297244567185 	-0.009522827452488744 		0.14595960437718197 	1.0147813427208552 		0.9380567358801826 	0.3840482743433678 		-0.009219981494388553 	0.0079375517056671 	
1046000000 	-0.015470608097550402 	-0.011301351309449531 		0.13278005608431992 	1.0171407252679527 		0.937107721894072 	0.38721712862001284 		-0.007814637451626003 	0.007503852359717243 	
1055500000 	-0.01498590543358125 	-0.010748012639257405 		0.11937507208979052 	1.0193261907041744 		0.935386574749127 	0.39084638212249967 		-0.0073631754729028085 	0.00831800227862097 	
1065000000 	-0.01603166923773173 	-0.009955411889399418 		0.10636202643590076 	1.021254084248782 		0.9343630510215928 	0.3937337986445314 		-0.008550887954292903 	0.00803582072730036 	
1074500000 	-0.014662705420364444 	-0.010365844013757357 		0.09328801819879372 	1.0225566256081418 		0.9329169613331911 	0.39734141217160135 		-0.007122850630206237 	0.008623762949520539 	
1084000000 	-0.014512087315436946 	-0.010969211629841342 		0.07984910911992746 	1.0238695344852686 		0.9319823721825703 	0.40078069718072673 		-0.007339499643785682 	0.008024643554938192 	
1093500000 	-0.014414455964177883 	-0.01229076326812301 		0.06723569905256435 	1.0251590677274613 		0.9306063978138933 	0.40370060133085073 		-0.006704485687809508 	0.007266921131160637 	
1103000000 	-0.013708882012690868 	-0.011198275487254742 		0.054009004593892344 	1.0261640851705047 		0.929324114400385 	0.4074503004135131 		-0.005876454181134965 	0.008269165806525014 	
1112500000 	-0.014014957736917685 	-0.01253183616113154 		0.04036055764325602 	1.026918949008095 		0.9283656606630692 	0.41028477724652546 		-0.006316583596613611 	0.007491608948153449 	
1122000000 	-0.013228045521082291 	-0.009480324378042889 		0.027211266234161466 	1.0281833467358217 		0.9270215070832983 	0.41368109632563327 		-0.006584282287982509 	0.008966330913864408 	
1131500000 	-0.012022825492647906 	-0.010518214970957961 		0.014214654537580244 	1.0285430043480945 		0.9256060000517055 	0.41693687829791287 		-0.00558298183781824 	0.008739157136274161 	
1141000000 	-0.012000706848234803 	-0.011437167668338868 		0.0009254695085312495 	1.0287659183039355 		0.9241982652849325 	0.42034930150042926 		-0.004816950161326666 	0.00791177436349895 	
1150500000 	-0.010220470197710003 	-0.009235839436966526 		-0.012422342176424045 	1.0287251074265178 		0.9233461628235766 	0.4232146798612198 		-0.00447146798194859 	0.008816232774748725 	
1160000000 	-0.010510194623817429 	-0.011034607761880954 		-0.025884867278017403 	1.0292908214729823 		0.9223576792570289 	0.42648726879580784 		-0.0033305421925485393 	0.008540901326240278 	
1169500000 	-0.011593935682887108 	-0.010330067722642161 		-0.03876667072584102 	1.029548230065438 		0.9202661763366029 	0.4300647228945911 		-0.004054364518011522 	0.008421218854687924 	
1179000000 	-0.011380960360041903 	-0.011719060967175066 		-0.05123148865774857 	1.0287760256903349 		0.9192312277615455 	0.4333095550448625 		-0.003386773634102242 	0.007835978474407064 	
1188500000 	-0.010980775767371363 	-0.010918967212081724 		-0.0654730141477896 	1.0284912687518053 		0.9178505924728468 	0.43636406650267145 		-0.0031089454418208244 	0.008208752528622888 	
1198000000 	-0.009256353902747911 	-0.011975661646361463 		-0.07865902095931654 	1.0280077616656018 		0.9164442766974281 	0.43958637532220346 		-0.0015276355304915503 	0.008272647255960825 	
1207500000 	-0.009991414124545453 	-0.011558237502818494 		-0.09176302974805568 	1.0268857708471404 		0.9152889743996039 	0.4428073591364123 		-0.0014717965915121646 	0.007849395867192905 	
1217000000 	-0.007870007759203657 	-0.010646327082674024 		-0.10527029604531242 	1.026015375848814 		0.9138381526297836 	0.4459678291668685 		-0.00037921158117889284 	0.008777678573881837 	
1226500000 	-0.00884095589654357 	-0.01200850286627067 		-0.11812224782077223 	1.02518386030492 		0.9121519063552554 	0.44897335893467677 		-0.0007274271979189314 	0.007991381348657369 	
1236000000 	-0.007079923741982224 	-0.012169114319849787 		-0.13090386851973218 	1.0238309818981932 		0.9108489218697985 	0.45267381952489855 		0.000923405325214506 	0.008132315178383805 	
1245500000 	-0.007639869949673506 	-0.012128566840239245 		-0.14455872931076344 	1.021860900970222 		0.9097004642487698 	0.4559276653487398 		0.0010589550034937572 	0.008400326917303289 	
1255000000 	-0.0065281132901437245 	-0.011888269356243012 		-0.15724097987569774 	1.0207724024011255 		0.9082586314278978 	0.4588302694727307 		0.001721580913442482 	0.008112769470275135 	
1264500000 	-0.007586718287323517 	-0.010640400696863402 		-0.1703233508698481 	1.0187979273623708 		0.9070083376710927 	0.4622749339259785 		0.0014092542906344373 	0.00866428857750029 	
1274000000 	-0.006329162223185777 	-0.011069669959936 		-0.1836703939951304 	1.016820433031265 		0.9054197144996384 	0.46520139405319844 		0.0025125074473575093 	0.008864670488377434 	
1283500000 	-0.005621633453504331 	-0.0109418588209417 		-0.19661029526576787 	1.014815129638743 		0.9039417182167635 	0.46805763960611657 		0.003124314165131111 	0.00862472736032681 	
1293000000 	-0.0059106707576646106 	-0.011135718150321751 		-0.20985679292407952 	1.012182616814 		0.9024592130600146 	0.4713572638427154 		0.003675845814543556 	0.008820586800397677 	
1302500000 	-0.005572378349626434 	-0.010703984783047384 		-0.2224220736247901 	1.0098467145869776 		0.9007348621147279 	0.4746115909200302 		0.0040965235195676 	0.00842538976970355 	
1312000000 	-0.0064866675900748004 	-0.009757626430573934 		-0.2359692253883553 	1.0068353978278286 		0.8997307479231231 	0.4776708587658954 		0.003648318771491313 	0.009288035771393439 	
1321500000 	-0.006049582004706212 	-0.009506928097694952 		-0.24879108264266106 	1.0043850442917566 		0.8984935739745264 	0.4808499034592563 		0.0045299119830892656 	0.009762150346136485 	
1331000000 	-0.006902484545484816 	-0.008455201180980107 		-0.26140642715478457 	1.001265230068715 		0.8966809117187315 	0.48375198700506683 		0.004260437983965415 	0.010021297618827604 	
1340500000 	-0.00648602746380221 	-0.008420096224811558 		-0.274677554176876 	0.998575839292588 		0.8948706520651272 	0.4869231441651349 		0.0056179374356001965 	0.01001627748150809 	
1350000000 	-0.006035185592940979 	-0.008049308949601444 		-0.2875314567697677 	0.9951704343859062 		0.8934557073838377 	0.4899647059896298 		0.006111180559803987 	0.009880140568519095 	
1359500000 	-0.005543407060778394 	-0.008329058318191012 		-0.30026301781302883 	0.9915006416508502 		0.8921401249543884 	0.4929862346699746 		0.007336970151681587 	0.009704164866389855 	
1369000000 	-0.00583474927807041 	-0.008859339494663642 		-0.3121398725447679 	0.9882697077298368 		0.8903061183373282 	0.49619591145856223 		0.0075545916821780175 	0.009744864790095916 	
1378500000 	-0.0053639881384960255 	-0.008393670090575324 		-0.32532471816817266 	0.9844918134627153 		0.8887453145278658 	0.49961216634996125 		0.008326992777318751 	0.009910899504721703 	
1388000000 	-0.004943262344895848 	-0.007956047010880454 		-0.3379476168537345 	0.9803954650721713 		0.8875335751184854 	0.5024353231974819 		0.009101620008624545 	0.009965561108835857 	
1397500000 	-0.004870267194366879 	-0.00804216716654843 		-0.3503058421752674 	0.976194198716284 		0.8859831040308254 	0.5056178026492493 		0.009858168792877079 	0.009727384920193075 	
1407000000 	-0.005630322964782278 	-0.007363369617966327 		-0.36292758281002235 	0.971726655017032 		0.8844109400087334 	0.5087373183762094 		0.010172775472116062 	0.010240481471735362 	
