!Nueva Lista de parametros corregidos 
# Hz S RI R 50 
400000000 	0.003180186582041904 	0.0035920261034250688 		0.8546719551507859 	0.5325449175536512 		0.992613085628623 	0.15292909835597035 		-0.0016560590070566642 	0.006418761489367126 	
409500000 	0.00217247076723606 	0.002396732217511394 		0.84723622840007 	0.5435865546508777 		0.9926437901705497 	0.15639310500364437 		-0.0029996567951455634 	0.0057274105118511635 	
419000000 	0.0015263963762918319 	0.00253774156511598 		0.840898430309225 	0.5547965077710735 		0.9923506367787153 	0.15992582039308897 		-0.0017829420086268293 	0.004698898911871555 	
428500000 	0.002645027299301164 	0.0033054309967053886 		0.8328387747147921 	0.5655574240017308 		0.9920283810234786 	0.1635311696436432 		-0.0011710008140334706 	0.004803941292196463 	
438000000 	0.003174104949336107 	0.0038994824928804198 		0.8272206888131174 	0.5770649045049654 		0.9911817015380385 	0.16714433914945076 		0.000281925372994068 	0.005861182088975284 	
447500000 	0.003253073974324355 	0.004201833467811831 		0.8186848635927609 	0.588433930491777 		0.9905540499257304 	0.1703710278856567 		-0.0008253936338195154 	0.006082874572761365 	
457000000 	0.001780489477052793 	0.0027645662414537485 		0.8112723303464751 	0.5989747091123152 		0.9902924554940628 	0.17403887312618863 		-0.0006663303255447033 	0.006523944845992076 	
466500000 	0.002923809275890838 	0.0030269292674583834 		0.8035379709275352 	0.6095381910895588 		0.9898356970500265 	0.1774746554919958 		-0.0005315506506842882 	0.006864430849350992 	
476000000 	0.0029137633486107893 	0.004345029588123215 		0.7951576662046242 	0.6200855570206278 		0.9889894166516501 	0.1810376266600173 		0.0005637981741069323 	0.007230211143337672 	
485500000 	0.0024407596929160815 	0.004898899590092278 		0.7875411032188727 	0.6308335314604776 		0.9884114910452066 	0.18489413638467503 		0.0003658989852255581 	0.007646013346762146 	
495000000 	0.0025943046222964396 	0.00446004457452697 		0.7794785102999412 	0.6413393401642273 		0.9878957467104875 	0.18850057477605783 		-4.307007386591925e-06 	0.00847760671693633 	
504500000 	0.002336771980346063 	0.004964181360220792 		0.7716404114986215 	0.6515706192643074 		0.9876542567357667 	0.19188164888365647 		0.0009805469226358298 	0.008703003775490088 	
514000000 	0.0020485910591029294 	0.005445793348472875 		0.7624260601670079 	0.661664272328786 		0.9868891948568 	0.1953340023792082 		0.0007081227893850364 	0.008318422000194127 	
523500000 	0.0008820553153855454 	0.004425433775435252 		0.7538716208239608 	0.6716297268892213 		0.9867290546503364 	0.19863432077006654 		-2.547663696519565e-05 	0.008603261960094902 	
533000000 	0.0027163803751961684 	0.0050556988718421765 		0.7458711591051177 	0.6813434950806332 		0.986152875445425 	0.20210689411307609 		0.002372393517676288 	0.007261922205507376 	
542500000 	0.002524049369050427 	0.0037599260949604378 		0.7365613360262805 	0.6917247672824669 		0.9852748299581968 	0.20609102770044216 		0.0007913668337464817 	0.008226811595171494 	
552000000 	0.0030628747736742503 	0.005260171269354521 		0.7276066658154248 	0.7024308634577227 		0.9848399934215099 	0.20886358354221063 		0.00102157908512162 	0.010534791414318382 	
561500000 	0.00308185148101452 	0.005766485822291831 		0.7196036099381278 	0.7107798165548688 		0.9844399061495159 	0.21333554690825576 		0.002346916223860146 	0.008076368572832816 	
571000000 	0.002854515069512426 	0.006642973774829382 		0.7101581691887866 	0.7216970066287541 		0.9835574758853847 	0.21643149869444223 		0.0029324871687062266 	0.007914223838778664 	
580500000 	0.0037455210367307048 	0.0053003375354417435 		0.7011244538660283 	0.7299830940905258 		0.9824958229431824 	0.22025514757753661 		0.0024101089570483423 	0.008858269573571387 	
590000000 	0.0030750603388087876 	0.0062379357198753815 		0.6913615710925692 	0.7396012402621478 		0.9821745758518082 	0.22374875506499645 		0.004238071345089535 	0.008477032652449739 	
599500000 	0.002951138853977234 	0.007800122343941199 		0.6812096892642114 	0.7479270795686133 		0.9820959785131809 	0.2272127154166862 		0.004638010044197791 	0.009592169147221052 	
609000000 	0.0014976596183218758 	0.007545918550681579 		0.6716411774077177 	0.7570633493455032 		0.9809871950817026 	0.23141276043417727 		0.004178439835473288 	0.010435638228762614 	
618500000 	0.004111024709778944 	0.007343062736977683 		0.6619727290390983 	0.7658536832634512 		0.9798755001952699 	0.23425312027708534 		0.003823387407314947 	0.009419890071259842 	
628000000 	0.0025897447633482693 	0.008054078089303434 		0.6523733561311367 	0.7746433251868368 		0.9791012334722068 	0.23699454898174063 		0.0036993157012532945 	0.009229369160288305 	
637500000 	0.003217166291163201 	0.006291107296842475 		0.6421686570698026 	0.7841733906794477 		0.9781610848784776 	0.24108763628421648 		0.004329702422016097 	0.009554005896182173 	
647000000 	0.0009913212061801128 	0.007143254467070191 		0.6330039775628922 	0.7925730550936052 		0.9777792107124009 	0.2447980861467982 		0.0045229504562342105 	0.01014792310342643 	
656500000 	0.0001632355500765199 	0.006768081401574029 		0.621813205604971 	0.8007754736472908 		0.9769221144949142 	0.24798155003972053 		0.004975402380695344 	0.008971652695483253 	
666000000 	0.0014741808323698274 	0.008630737762076875 		0.6119080789159232 	0.8086711553326036 		0.976776075067799 	0.25165741018731036 		0.0056839742494819686 	0.010667107556108862 	
675500000 	0.0005432498673857534 	0.006726353352801519 		0.6013565439758839 	0.8176274525305156 		0.9761343050842826 	0.25472100469850917 		0.004868084971854101 	0.009815305398776137 	
685000000 	0.0017905917535411889 	0.00800264685825443 		0.5907662055657783 	0.8252291445066998 		0.9749476222488246 	0.25838054613280176 		0.006327799999338728 	0.009245335225298587 	
694500000 	0.00022324734939352647 	0.007775782707829371 		0.5799392834034605 	0.8327589197494771 		0.9744800452292983 	0.2622591667852021 		0.0070711330324860185 	0.010772567311544443 	
704000000 	0.000571810353249863 	0.009063978866152149 		0.5691786032453618 	0.8406260402228439 		0.9737096103770916 	0.26573257085281543 		0.007314915251552803 	0.010630733823465048 	
713500000 	-0.0009315672820305077 	0.009778285903216517 		0.5586458509023436 	0.8474498792708501 		0.9727238351989211 	0.26905937426082255 		0.008209863886040364 	0.010917941109841 	
723000000 	0.0005976869653772189 	0.009986591468560763 		0.5477858142568697 	0.8553800265885437 		0.971271974626721 	0.27229311245692345 		0.008293639296023236 	0.010184367312132483 	
732500000 	0.001807135077900766 	0.010269552275772725 		0.5367099052541063 	0.8629131334945872 		0.9705802790832551 	0.2757001578853399 		0.008281594298371851 	0.008758098453482036 	
742000000 	0.0013130491752196744 	0.008251898148193196 		0.5252285946028947 	0.8699327305844533 		0.969879264095573 	0.2795402375324136 		0.009513406310910136 	0.008294137273888011 	
751500000 	0.00048208949097101954 	0.009061634854726606 		0.5146445277749936 	0.8770813542256007 		0.9694567903179434 	0.28274856068823395 		0.008889938305340565 	0.009193439462790746 	
761000000 	-0.0023374688455045853 	0.009907099243418307 		0.5022566486211489 	0.8845107608593369 		0.9682470784143324 	0.2862585143382062 		0.009604722459667925 	0.010809491336726073 	
770500000 	0.0028655101309498776 	0.011146791385775972 		0.4913577098055587 	0.8895721317829981 		0.968216473620294 	0.2903137801923357 		0.009452744574292474 	0.007166581524384369 	
780000000 	0.0012467637859071437 	0.009876304879057234 		0.4801454556429984 	0.89642172336172 		0.9672442358089387 	0.2932097016129527 		0.008989470812758305 	0.007859930187561814 	
789500000 	0.001594451981695853 	0.011460488662149396 		0.4689844874975486 	0.9034853619887253 		0.9655436514787937 	0.2966223931162537 		0.011553177776568948 	0.007151694887110962 	
799000000 	-0.0008317782059242053 	0.009012591023013937 		0.4573685987568095 	0.9093814554428804 		0.9654864712391769 	0.3001262056330132 		0.01151383784278379 	0.009189336266968814 	
808500000 	-0.0012608188749516215 	0.011696545407744893 		0.4447946458637601 	0.9161942768454723 		0.9639842964437313 	0.3032410065259866 		0.012658126616016719 	0.008885801514435257 	
818000000 	-0.0012651857354503246 	0.012520933944249385 		0.4338963299263229 	0.921712258119879 		0.9634832123326106 	0.30714292285249756 		0.012736855033264105 	0.009351721134155668 	
827500000 	-0.0006516464870956346 	0.011209649867768488 		0.421791358912802 	0.9277037287275908 		0.9626064456267183 	0.3103129671576382 		0.01441341469189779 	0.00759865994111596 	
837000000 	0.00032425255494407395 	0.011825207695465297 		0.40992374770588813 	0.9332198388930978 		0.9617400136221373 	0.31403832553303096 		0.014925293251853173 	0.007027741974248857 	
846500000 	-0.003353617080076758 	0.012734798274946418 		0.39789037041897957 	0.9378877717499834 		0.9609002272831246 	0.3180323130668396 		0.016049161451836966 	0.006513197158191377 	
856000000 	-0.002869225517728926 	0.012784447119421099 		0.38532492607196284 	0.9439734379045782 		0.9601294873776768 	0.32070542549287173 		0.01564259044085301 	0.008166084538554799 	
865500000 	-0.0037814400945582866 	0.01345937376378718 		0.3734129542554546 	0.950016831348387 		0.9581169092354649 	0.3242184135429279 		0.01649238888033165 	0.0060288949260182655 	
875000000 	-0.003983239808127355 	0.015135763969101762 		0.36061798565446507 	0.9544505050344823 		0.9576887455570353 	0.3279227488560242 		0.01719408456530367 	0.006258297512909117 	
884500000 	-0.004086804381539167 	0.015369561960219323 		0.3484875653500775 	0.9590886447431771 		0.9569979221676634 	0.33094765071081644 		0.01778225442220766 	0.005633371590034652 	
894000000 	-0.0022992302807302665 	0.013018624097573556 		0.3368864330004171 	0.9632097184246405 		0.9561018328589135 	0.33428648972406716 		0.017634567349580122 	0.0057822755039525515 	
903500000 	-0.0030691931388119914 	0.012050159721588483 		0.32397789526074394 	0.9685059202489178 		0.9549199337130566 	0.3375283681451789 		0.017111128282798576 	0.0059286225610912825 	
913000000 	-0.004571259689228631 	0.013149983185292593 		0.3116357559083033 	0.9725172998557752 		0.9535516564073767 	0.341001979343972 		0.01709409562795441 	0.006214212909637662 	
922500000 	-0.004767003631327238 	0.013576826388981292 		0.2989249568942179 	0.9773304737078643 		0.9527101972519316 	0.3444554334052919 		0.01766100723827164 	0.005100244246142543 	
932000000 	-0.005379334311703083 	0.013380379188360204 		0.28659452418357056 	0.9816363532853325 		0.951329472006823 	0.34794980276842885 		0.019397707593149967 	0.004227437589119843 	
941500000 	-0.004043918544208029 	0.014008337235251368 		0.2738539378635275 	0.9844019709026972 		0.9504942591216727 	0.35173988761229075 		0.01749672178146086 	0.003935057082341052 	
951000000 	-0.006769023007181393 	0.015482525950384362 		0.26107209666136033 	0.9889818261696401 		0.9497182735590436 	0.3542297059436566 		0.01944659318541016 	0.0021066269550774498 	
960500000 	-0.005229858500734709 	0.014213361913468486 		0.24892130824387615 	0.9923158839775345 		0.9480861660947383 	0.3580123431801074 		0.018849895654944403 	0.0019066388992963707 	
970000000 	-0.009064450944808167 	0.015062915967650624 		0.23560922620602695 	0.9956848128682005 		0.9476822928127692 	0.3614941563607353 		0.020669160698193443 	0.0018029447416138215 	
979500000 	-0.008494101044284155 	0.016643501660358752 		0.22260688988757302 	0.9987769785565561 		0.9467098664945897 	0.36521876014420834 		0.02218655392414948 	0.0010281955974769884 	
989000000 	-0.008957033616162253 	0.017399840730927405 		0.2099739461434987 	1.002070518276118 		0.9452107417806734 	0.3679190335057775 		0.02179520970489693 	-0.0009869177646935263 	
998500000 	-0.009829904988816706 	0.016695382810602323 		0.19763314937608706 	1.0046864849216115 		0.9441108821273442 	0.37156354856582535 		0.02200557897491358 	-0.0012765760955864094 	
1008000000 	-0.00955059519734918 	0.016911684039992998 		0.18451793953557621 	1.0076100874161802 		0.9428874485769339 	0.3749961205145205 		0.021768537678088635 	-0.000711976779838992 	
1017500000 	-0.010944732882588088 	0.015264858919072604 		0.1713439637930446 	1.0102863279912306 		0.9423310795201568 	0.37834773242285463 		0.022055179932217027 	-0.0019085133377571264 	
1027000000 	-0.0116162858008768 	0.014557450990287522 		0.15852602830137888 	1.0125278710619552 		0.9408528388869596 	0.38112867317855903 		0.023382575223417593 	-0.0007950215540958724 	
1036500000 	-0.011512214135192248 	0.015591531666514741 		0.14603176569964318 	1.014745790588853 		0.9399244980535012 	0.3850363257751074 		0.02349753103933318 	-0.0021293741855715385 	
1046000000 	-0.013182225111625782 	0.01605981088171872 		0.13280281167161426 	1.0170804285099186 		0.9389376090998298 	0.38829671214741 		0.0239160728426873 	-0.003408273623959287 	
1055500000 	-0.012829832311925877 	0.01545053308842459 		0.11940040252907591 	1.0192620830985357 		0.9372366119674846 	0.39181396729795304 		0.023782547172990588 	-0.004254578374915007 	
1065000000 	-0.012854987506405886 	0.01519638698348627 		0.10642973997760746 	1.0211878175022424 		0.9362946678796527 	0.39472999675338105 		0.02394686079660652 	-0.0035829878880673125 	
1074500000 	-0.014383272420175477 	0.01490152262078996 		0.09334588471191478 	1.0224482465513767 		0.9348914260340235 	0.3983574275361741 		0.024856018838184283 	-0.005246603445744873 	
1084000000 	-0.015124687235884181 	0.014933805392806228 		0.07990886467763685 	1.0237581757230372 		0.9339552776480119 	0.4018955754347829 		0.025214974507127983 	-0.004991735273137266 	
1093500000 	-0.01609120812213601 	0.01610336167889333 		0.06726071393146045 	1.0250323937080965 		0.9327161810567581 	0.4048556166185182 		0.024607308602407833 	-0.006834166004448923 	
1103000000 	-0.01636510213052705 	0.014303952057567685 		0.0540797151826546 	1.026018450122849 		0.9314089792703482 	0.40857165498700077 		0.025140712143995943 	-0.008278386749565027 	
1112500000 	-0.01677744215260743 	0.015399751364899513 		0.04039988471033448 	1.0267852103460422 		0.9305338695476539 	0.41147000839970654 		0.024841401880550163 	-0.0076742391267751 	
1122000000 	-0.016844990984667105 	0.012720911001406482 		0.02733838283095341 	1.028005349471989 		0.9290995308527867 	0.41477590324113495 		0.025526986758278847 	-0.007627603114332709 	
1131500000 	-0.018503432983054995 	0.013127120192772086 		0.014317376234618871 	1.028325409163076 		0.9277412221141006 	0.4181189990041146 		0.025856020831151297 	-0.008919121655378677 	
1141000000 	-0.0193817762279002 	0.013211507357316632 		0.0010270003744859842 	1.0285455145790598 		0.9263835905884387 	0.4215882048238572 		0.02530024628995306 	-0.010035716439816968 	
1150500000 	-0.021142194027882425 	0.010891762642211788 		-0.012242969156637836 	1.0284204952664282 		0.9254572108003566 	0.4245104322276552 		0.025863153956677612 	-0.010595062893198313 	
1160000000 	-0.0205576771335068 	0.01136356925878829 		-0.02574920439414251 	1.029036135505744 		0.9245110597362015 	0.42775395299785757 		0.025168494683563785 	-0.012119226055963338 	
1169500000 	-0.02021249133665821 	0.011574814361789993 		-0.03860888729466351 	1.029291936814843 		0.9225459782732125 	0.43124755621892186 		0.024767574675771807 	-0.012357870591492376 	
1179000000 	-0.02089017181532275 	0.01177987856230409 		-0.051090705601716524 	1.0285333612048408 		0.9215415749088616 	0.4345760721864424 		0.02462590760498037 	-0.012804602179012345 	
1188500000 	-0.021362803173083925 	0.010592851914811305 		-0.06529154199628155 	1.0282311187648538 		0.9201446527579333 	0.4376422175913078 		0.024789313919512432 	-0.013366223917182321 	
1198000000 	-0.023563726716046524 	0.010569899223462796 		-0.07848631271863679 	1.0276802886134013 		0.9188353024652157 	0.44101277388764 		0.025245806051678657 	-0.01594976387920631 	
1207500000 	-0.023385362590698913 	0.010041525172386078 		-0.09156629716307907 	1.0265718582424586 		0.9177131207997843 	0.44416155593355233 		0.023902432791117596 	-0.01601765129174565 	
1217000000 	-0.025591438325739714 	0.00865331270730423 		-0.10502956797061819 	1.0256029218273741 		0.9162890422788607 	0.4474362605203949 		0.024608948105177747 	-0.01776952868735356 	
1226500000 	-0.025263335438721446 	0.010226283603367383 		-0.11792703568687427 	1.0248001023794018 		0.9147570256696618 	0.45039457451107995 		0.024011859086780246 	-0.01800757174943821 	
1236000000 	-0.027688995922502044 	0.009071102532490022 		-0.13067013093086197 	1.0233665761361017 		0.9135083898395836 	0.45426609788733535 		0.024245063123021326 	-0.020115259037768358 	
1245500000 	-0.027077241675649732 	0.009023084012366076 		-0.14431886351077516 	1.0214106104057061 		0.9124384253543654 	0.45744135108345557 		0.023873944185142836 	-0.021500410426935804 	
1255000000 	-0.029123277017277644 	0.008559845007024253 		-0.15697369962341884 	1.02023979682983 		0.9110841355287789 	0.46043467264365434 		0.023318772063034118 	-0.02238568598767801 	
1264500000 	-0.027677850929066446 	0.007502311144684682 		-0.17001709398412435 	1.0183071083689383 		0.9098069660289106 	0.46372354923867015 		0.022464332423100343 	-0.022507821012498153 	
1274000000 	-0.02930866913894863 	0.006892371914007452 		-0.18334354226419436 	1.0162777400869254 		0.9082893660255058 	0.4667815464015062 		0.022710633496536327 	-0.02396434386648377 	
1283500000 	-0.030910340085430376 	0.005731379888341723 		-0.1962212118332944 	1.0142391476955404 		0.9068285067139903 	0.4697928823567731 		0.022972350979586914 	-0.02434818442848487 	
1293000000 	-0.030702223287960073 	0.0055190249458030366 		-0.20945547110228896 	1.0116100507446324 		0.9054327742544543 	0.47305264323968066 		0.022445554006764085 	-0.025945174189421282 	
1302500000 	-0.03209743416200339 	0.005079786557482743 		-0.2219825231880616 	1.009211881515583 		0.9038124153838409 	0.4763326500250064 		0.02156529845109477 	-0.026720040306030302 	
1312000000 	-0.03072458269525659 	0.004409271114838001 		-0.2354953242213483 	1.0062394122919054 		0.9028133452665992 	0.47926790740613134 		0.02143392514350467 	-0.027207618478381386 	
1321500000 	-0.03128047527132994 	0.0027693559504069405 		-0.2482606273990864 	1.003788655179429 		0.9015654581833292 	0.48253849078390476 		0.021189121579946558 	-0.02787265270777457 	
1331000000 	-0.030188428763395333 	0.0011768274481620462 		-0.260806054312889 	1.0007398881508147 		0.8996251845953396 	0.4854095659794617 		0.0213476930632028 	-0.027501985458043963 	
1340500000 	-0.031259060263313515 	-0.000388222648406588 		-0.27401079749918317 	0.9980233085720989 		0.8978652845171085 	0.4886855800548837 		0.020240662376478695 	-0.028943864963251353 	
1350000000 	-0.03254192822604012 	-0.0009494048693144142 		-0.2868106292541997 	0.9945635908927265 		0.8965426445752444 	0.49177992350405286 		0.01979437985790566 	-0.030065968326530083 	
1359500000 	-0.033640254919272014 	-0.0017918574032354609 		-0.29949937549216993 	0.9908478366178314 		0.8953245906810017 	0.4948756361926128 		0.018401897592806846 	-0.03167361886469937 	
1369000000 	-0.03324695045419099 	-0.0008743018101063881 		-0.3114217850282964 	0.9876096493449382 		0.8936111790049652 	0.49793773787769696 		0.0172432666118856 	-0.03253352363898499 	
1378500000 	-0.03387369946556372 	-0.0032036302514716225 		-0.3245109176050774 	0.9838536054326243 		0.8919600994719978 	0.5015306679214038 		0.017155489608896866 	-0.03269962141801445 	
1388000000 	-0.03521357030054492 	-0.0042454207039598095 		-0.3370616858673185 	0.9797016944568481 		0.8908553081119435 	0.5044243279410029 		0.01649536489480023 	-0.03374652160701117 	
1397500000 	-0.03610976484554338 	-0.004846695910855253 		-0.3493639740462318 	0.9754660575430517 		0.8894162110837041 	0.5076517673903297 		0.015571568597723044 	-0.034989102510521085 	
1407000000 	-0.035037014573878554 	-0.006207676796998942 		-0.3619269564591163 	0.9710554400440347 		0.8877879719733576 	0.5107115995892426 		0.014851796150260298 	-0.03548534805988515 	
